Title: kicad schematic
Date: Thu Nov 07 00:15:03  2024
Plotname: Transient Analysis
Flags: real
No. Variables: 90
No. Points: 302     
Variables:
	0	time	time
	1	v(net-_c2-pad1_)	voltage
	2	v(x2.net-_q1-pad1_)	voltage
	3	v(net-_r4-pad2_)	voltage
	4	v(x2.net-_q1-pad3_)	voltage
	5	v(x2.net-_q2-pad3_)	voltage
	6	v(x2.net-_q3-pad2_)	voltage
	7	v(x2.net-_q13-pad1_)	voltage
	8	v(x2.net-_c1-pad2_)	voltage
	9	v(net-_v1-pad1_)	voltage
	10	v(x2.net-_q3-pad3_)	voltage
	11	v(unconnected-_x2-pad5_)	voltage
	12	v(unconnected-_x2-pad1_)	voltage
	13	v(net-_v1-pad2_)	voltage
	14	v(x2.net-_q12-pad1_)	voltage
	15	v(x2.net-_q13-pad3_)	voltage
	16	v(x2.net-_q10-pad1_)	voltage
	17	v(x2.net-_c1-pad1_)	voltage
	18	v(x2.net-_q14-pad2_)	voltage
	19	v(x2.net-_q14-pad3_)	voltage
	20	v(x2.net-_q15-pad2_)	voltage
	21	v(x2.net-_q15-pad3_)	voltage
	22	v(x2.net-_q18-pad3_)	voltage
	23	v(out)	voltage
	24	v(x2.net-_q19-pad3_)	voltage
	25	v(in)	voltage
	26	v(net-_r1-pad2_)	voltage
	27	v(net-_c1-pad2_)	voltage
	28	v(net-_r3-pad2_)	voltage
	29	v(x1.net-_q1-pad1_)	voltage
	30	v(x1.net-_q1-pad3_)	voltage
	31	v(x1.net-_q2-pad3_)	voltage
	32	v(x1.net-_q3-pad2_)	voltage
	33	v(x1.net-_q13-pad1_)	voltage
	34	v(x1.net-_c1-pad2_)	voltage
	35	v(x1.net-_q3-pad3_)	voltage
	36	v(unconnected-_x1-pad5_)	voltage
	37	v(unconnected-_x1-pad1_)	voltage
	38	v(x1.net-_q12-pad1_)	voltage
	39	v(x1.net-_q13-pad3_)	voltage
	40	v(x1.net-_q10-pad1_)	voltage
	41	v(x1.net-_c1-pad1_)	voltage
	42	v(x1.net-_q14-pad2_)	voltage
	43	v(x1.net-_q14-pad3_)	voltage
	44	v(x1.net-_q15-pad2_)	voltage
	45	v(x1.net-_q15-pad3_)	voltage
	46	v(x1.net-_q18-pad3_)	voltage
	47	v(x1.net-_q19-pad3_)	voltage
	48	v(q.x1.q19#collCX)	voltage
	49	v(q.x1.q11#collCX)	voltage
	50	v(q.x1.q10#collCX)	voltage
	51	v(q.x1.q9#collCX)	voltage
	52	v(q.x1.q4#collCX)	voltage
	53	v(q.x1.q5#collCX)	voltage
	54	v(q.x1.q6#collCX)	voltage
	55	v(q.x1.q20#collCX)	voltage
	56	v(q.x1.q18#collCX)	voltage
	57	v(q.x1.q17#collCX)	voltage
	58	v(q.x1.q15#collCX)	voltage
	59	v(q.x1.q16#collCX)	voltage
	60	v(q.x1.q14#collCX)	voltage
	61	v(q.x1.q13#collCX)	voltage
	62	v(q.x1.q12#collCX)	voltage
	63	v(q.x1.q7#collCX)	voltage
	64	v(q.x1.q8#collCX)	voltage
	65	v(q.x1.q3#collCX)	voltage
	66	v(q.x1.q2#collCX)	voltage
	67	v(q.x1.q1#collCX)	voltage
	68	v(q.x2.q19#collCX)	voltage
	69	v(q.x2.q11#collCX)	voltage
	70	v(q.x2.q10#collCX)	voltage
	71	v(q.x2.q9#collCX)	voltage
	72	v(q.x2.q4#collCX)	voltage
	73	v(q.x2.q5#collCX)	voltage
	74	v(q.x2.q6#collCX)	voltage
	75	v(q.x2.q20#collCX)	voltage
	76	v(q.x2.q18#collCX)	voltage
	77	v(q.x2.q17#collCX)	voltage
	78	v(q.x2.q15#collCX)	voltage
	79	v(q.x2.q16#collCX)	voltage
	80	v(q.x2.q14#collCX)	voltage
	81	v(q.x2.q13#collCX)	voltage
	82	v(q.x2.q12#collCX)	voltage
	83	v(q.x2.q7#collCX)	voltage
	84	v(q.x2.q8#collCX)	voltage
	85	v(q.x2.q3#collCX)	voltage
	86	v(q.x2.q2#collCX)	voltage
	87	v(q.x2.q1#collCX)	voltage
	88	i(v1)	current
	89	i(v2)	current
Values:
0		0.000000000000000e+00
	-1.613955563705319e+00
	1.678829244385650e+00
	8.087604831184838e-01
	2.788352151417789e-01
	-9.318172564934062e-01
	-1.721099539992792e+00
	-2.501378119812212e-01
	-2.787053935677024e+00
	2.206706629334413e+00
	-2.253441868329680e+00
	-2.791011789817063e+00
	-2.782229346899938e+00
	-2.793293370665587e+00
	-2.207253107583776e+00
	-2.736321180499639e+00
	1.624982593359364e+00
	2.202370151142477e+00
	2.202370051120099e+00
	2.202369884416136e+00
	-2.793293119331810e+00
	-2.793293370664485e+00
	1.621369994079543e+00
	1.619343536461597e+00
	1.619343536491494e+00
	0.000000000000000e+00
	-8.069777730076639e-01
	-5.532031240892125e-05
	-1.613955563711666e+00
	1.679201606973103e+00
	-9.327882061400473e-01
	-5.293313200460062e-01
	-2.572906960700114e+00
	-1.058230704243324e+00
	-1.619446407821548e+00
	-2.793288946438726e+00
	-2.793293370651011e+00
	-2.793293370651226e+00
	-2.207272886011556e+00
	-2.736522501315045e+00
	1.622148649354759e+00
	-1.324093780559642e+00
	-1.652759017329188e+00
	-2.198213072276945e+00
	-2.202944014339194e+00
	-2.788481140723285e+00
	-1.613955533934501e+00
	-1.617990512419826e+00
	-2.793216134904755e+00
	-1.324000114077815e+00
	1.622238730822170e+00
	-1.058220050838274e+00
	1.679211880488505e+00
	-1.619435485860582e+00
	-2.572906960696728e+00
	-1.324093780558625e+00
	2.206706628222522e+00
	-1.619446407821117e+00
	-2.198308087757938e+00
	-2.198215186414538e+00
	-1.324114410242094e+00
	-1.058241880295220e+00
	-2.207369648432691e+00
	-2.572906960697778e+00
	-1.619446407821119e+00
	2.206706629250843e+00
	1.679190340645072e+00
	1.679201606967014e+00
	-2.793293370660589e+00
	2.202371202359821e+00
	1.625063638917208e+00
	-2.501271186340272e-01
	1.678839666175188e+00
	-2.787053935674484e+00
	-1.721088453454543e+00
	2.202370151139676e+00
	2.206626622218183e+00
	-2.787053935674246e+00
	2.202369884408920e+00
	2.202369884408922e+00
	2.202370151140275e+00
	-2.501490293938392e-01
	-2.207349942406924e+00
	-1.721110428667193e+00
	-2.787053935687323e+00
	2.206693573250601e+00
	1.678829244380675e+00
	1.678817816034585e+00
	-4.282762999425722e-04
	0.000000000000000e+00
1		1.000000000000000e-04
	-1.613955563653363e+00
	1.678829244463510e+00
	8.087604831565456e-01
	2.788352151815999e-01
	-9.318172564453504e-01
	-1.721099539915833e+00
	-2.501378119396632e-01
	-2.787053935600105e+00
	2.206706629412333e+00
	-2.253441868252679e+00
	-2.791011789739501e+00
	-2.782229346822292e+00
	-2.793293370587667e+00
	-2.207253107505827e+00
	-2.736321180421708e+00
	1.624982593437276e+00
	2.202370151219815e+00
	2.202370051195431e+00
	2.202369884488133e+00
	-2.793293119253850e+00
	-2.793293370586565e+00
	1.621369994155650e+00
	1.619343536537609e+00
	1.619343536567506e+00
	4.052161497917507e-02
	-8.069777729714924e-01
	-5.431443155689877e-05
	-1.613955563659710e+00
	1.679201606519997e+00
	-9.327878267072318e-01
	-5.293303150717925e-01
	-2.572906484016949e+00
	-1.058229699497398e+00
	-1.619446407021957e+00
	-2.793288946038196e+00
	-2.793293370573090e+00
	-2.793293370573305e+00
	-2.207272885932338e+00
	-2.736522501000453e+00
	1.622148649432761e+00
	-1.324093780507556e+00
	-1.652759017276930e+00
	-2.198213072224421e+00
	-2.202944014178555e+00
	-2.788481140632644e+00
	-1.613955533882545e+00
	-1.617990512367795e+00
	-2.793216134826836e+00
	-1.324000114025729e+00
	1.622238730900172e+00
	-1.058219046092280e+00
	1.679211880035610e+00
	-1.619435485060734e+00
	-2.572906484013557e+00
	-1.324093780506538e+00
	2.206706628300442e+00
	-1.619446407021526e+00
	-2.198308087705665e+00
	-2.198215186361763e+00
	-1.324114410190008e+00
	-1.058240875549347e+00
	-2.207369648353478e+00
	-2.572906484014615e+00
	-1.619446407021528e+00
	2.206706629328762e+00
	1.679190340191727e+00
	1.679201606513909e+00
	-2.793293370582669e+00
	2.202371202437161e+00
	1.625063638995120e+00
	-2.501271185924692e-01
	1.678839666253047e+00
	-2.787053935597565e+00
	-1.721088453377585e+00
	2.202370151217013e+00
	2.206626622296099e+00
	-2.787053935597327e+00
	2.202369884480917e+00
	2.202369884480919e+00
	2.202370151217612e+00
	-2.501490293522812e-01
	-2.207349942328976e+00
	-1.721110428590233e+00
	-2.787053935610404e+00
	2.206693573328520e+00
	1.678829244458536e+00
	1.678817816112446e+00
	-4.282763002528577e-04
	-3.241648727865848e-09
2		2.000000000000000e-04
	-1.613955563658048e+00
	1.678829244453906e+00
	8.087604831518240e-01
	2.788352151766498e-01
	-9.318172564502198e-01
	-1.721099539924948e+00
	-2.501378119448390e-01
	-2.787053935608396e+00
	2.206706629402710e+00
	-2.253441868261718e+00
	-2.791011789748681e+00
	-2.782229346831741e+00
	-2.793293370597290e+00
	-2.207253107515493e+00
	-2.736321180431358e+00
	1.624982593427607e+00
	2.202370151210224e+00
	2.202370051185841e+00
	2.202369884478542e+00
	-2.793293119263470e+00
	-2.793293370596188e+00
	1.621369994146213e+00
	1.619343536528184e+00
	1.619343536558081e+00
	8.101365276397314e-02
	-8.069777729839251e-01
	-5.431513954305735e-05
	-1.613955563664395e+00
	1.679201606588301e+00
	-9.327878242759462e-01
	-5.293303156705884e-01
	-2.572906472849685e+00
	-1.058229699991969e+00
	-1.619446407191085e+00
	-2.793288946284518e+00
	-2.793293370582716e+00
	-2.793293370582931e+00
	-2.207272885943087e+00
	-2.736522501012215e+00
	1.622148649423145e+00
	-1.324093780512447e+00
	-1.652759017281626e+00
	-2.198213072228813e+00
	-2.202944014206733e+00
	-2.788481140645120e+00
	-1.613955533887230e+00
	-1.617990512372442e+00
	-2.793216134836459e+00
	-1.324000114030620e+00
	1.622238730890555e+00
	-1.058219046586873e+00
	1.679211880103882e+00
	-1.619435485229920e+00
	-2.572906472846299e+00
	-1.324093780511429e+00
	2.206706628290819e+00
	-1.619446407190655e+00
	-2.198308087710001e+00
	-2.198215186366211e+00
	-1.324114410194898e+00
	-1.058240876043914e+00
	-2.207369648364224e+00
	-2.572906472847349e+00
	-1.619446407190657e+00
	2.206706629319138e+00
	1.679190340260073e+00
	1.679201606582213e+00
	-2.793293370592292e+00
	2.202371202427570e+00
	1.625063638985451e+00
	-2.501271185976451e-01
	1.678839666243444e+00
	-2.787053935605857e+00
	-1.721088453386701e+00
	2.202370151207423e+00
	2.206626622286477e+00
	-2.787053935605619e+00
	2.202369884471326e+00
	2.202369884471328e+00
	2.202370151208021e+00
	-2.501490293574570e-01
	-2.207349942338641e+00
	-1.721110428599349e+00
	-2.787053935618695e+00
	2.206693573318898e+00
	1.678829244448932e+00
	1.678817816102842e+00
	-4.282763001873502e-04
	-3.239363079422742e-09
3		4.000000000000000e-04
	-1.613955563711550e+00
	1.678829244398713e+00
	8.087604831246287e-01
	2.788352151496548e-01
	-9.318172564936991e-01
	-1.721099539983505e+00
	-2.501378119716133e-01
	-2.787053935663012e+00
	2.206706629347554e+00
	-2.253441868319614e+00
	-2.791011789803817e+00
	-2.782229346887716e+00
	-2.793293370652446e+00
	-2.207253107570614e+00
	-2.736321180486483e+00
	1.624982593372475e+00
	2.202370151154868e+00
	2.202370051130485e+00
	2.202369884423186e+00
	-2.793293119318629e+00
	-2.793293370651344e+00
	1.621369994091744e+00
	1.619343536473783e+00
	1.619343536503680e+00
	1.617908174895852e-01
	-8.069777730107238e-01
	-5.432027579182602e-05
	-1.613955563717898e+00
	1.679201606536594e+00
	-9.327878210922985e-01
	-5.293303208011881e-01
	-2.572906455989773e+00
	-1.058229705120339e+00
	-1.619446407253814e+00
	-2.793288946340281e+00
	-2.793293370637870e+00
	-2.793293370638084e+00
	-2.207272885998202e+00
	-2.736522501068531e+00
	1.622148649367936e+00
	-1.324093780566477e+00
	-1.652759017335848e+00
	-2.198213072283334e+00
	-2.202944014262470e+00
	-2.788481140700366e+00
	-1.613955533940732e+00
	-1.617990512426078e+00
	-2.793216134891613e+00
	-1.324000114084650e+00
	1.622238730835347e+00
	-1.058219051715244e+00
	1.679211880052174e+00
	-1.619435485292651e+00
	-2.572906455986387e+00
	-1.324093780565459e+00
	2.206706628235663e+00
	-1.619446407253383e+00
	-2.198308087764520e+00
	-2.198215186420735e+00
	-1.324114410248929e+00
	-1.058240881172283e+00
	-2.207369648419338e+00
	-2.572906455987436e+00
	-1.619446407253385e+00
	2.206706629263981e+00
	1.679190340208368e+00
	1.679201606530506e+00
	-2.793293370647448e+00
	2.202371202372214e+00
	1.625063638930319e+00
	-2.501271186244193e-01
	1.678839666188251e+00
	-2.787053935660472e+00
	-1.721088453445257e+00
	2.202370151152067e+00
	2.206626622231323e+00
	-2.787053935660234e+00
	2.202369884415970e+00
	2.202369884415972e+00
	2.202370151152666e+00
	-2.501490293842313e-01
	-2.207349942393762e+00
	-1.721110428657905e+00
	-2.787053935673311e+00
	2.206693573263742e+00
	1.678829244393739e+00
	1.678817816047649e+00
	-4.282763001850568e-04
	-3.222810509526135e-09
4		8.000000000000000e-04
	-1.613955563707599e+00
	1.678829244402782e+00
	8.087604831270393e-01
	2.788352151511237e-01
	-9.318172564910320e-01
	-1.721099539974568e+00
	-2.501378119710916e-01
	-2.787053935658601e+00
	2.206706629351509e+00
	-2.253441868311486e+00
	-2.791011789799498e+00
	-2.782229346882514e+00
	-2.793293370648491e+00
	-2.207253107566624e+00
	-2.736321180482506e+00
	1.624982593376494e+00
	2.202370151159825e+00
	2.202370051139338e+00
	2.202369884438527e+00
	-2.793293119314680e+00
	-2.793293370647389e+00
	1.621369994096622e+00
	1.619343536478654e+00
	1.619343536508551e+00
	3.216938706695075e-01
	-8.069777730087352e-01
	-5.433563508639562e-05
	-1.613955563713946e+00
	1.679201606547254e+00
	-9.327878173474179e-01
	-5.293303361491531e-01
	-2.572906436954832e+00
	-1.058229720467263e+00
	-1.619446407254365e+00
	-2.793288946333730e+00
	-2.793293370633915e+00
	-2.793293370634131e+00
	-2.207272885994152e+00
	-2.736522501068093e+00
	1.622148649371811e+00
	-1.324093780560735e+00
	-1.652759017330771e+00
	-2.198213072279285e+00
	-2.202944014259066e+00
	-2.788481140696495e+00
	-1.613955533936781e+00
	-1.617990512422113e+00
	-2.793216134887658e+00
	-1.324000114078908e+00
	1.622238730839222e+00
	-1.058219067062168e+00
	1.679211880062832e+00
	-1.619435485293204e+00
	-2.572906436951446e+00
	-1.324093780559718e+00
	2.206706628239618e+00
	-1.619446407253934e+00
	-2.198308087760470e+00
	-2.198215186416687e+00
	-1.324114410243188e+00
	-1.058240896519206e+00
	-2.207369648415288e+00
	-2.572906436952497e+00
	-1.619446407253936e+00
	2.206706629267937e+00
	1.679190340219031e+00
	1.679201606541166e+00
	-2.793293370643493e+00
	2.202371202377169e+00
	1.625063638934338e+00
	-2.501271186238976e-01
	1.678839666192320e+00
	-2.787053935656061e+00
	-1.721088453436320e+00
	2.202370151157024e+00
	2.206626622235278e+00
	-2.787053935655823e+00
	2.202369884431311e+00
	2.202369884431314e+00
	2.202370151157623e+00
	-2.501490293837095e-01
	-2.207349942389772e+00
	-1.721110428648969e+00
	-2.787053935668899e+00
	2.206693573267697e+00
	1.678829244397808e+00
	1.678817816051717e+00
	-4.282763001847020e-04
	-3.173312232042547e-09
5		1.600000000000000e-03
	-1.613955563722137e+00
	1.678829244387001e+00
	8.087604831189819e-01
	2.788352151416710e-01
	-9.318172565041813e-01
	-1.721099539988167e+00
	-2.501378119819379e-01
	-2.787053935676597e+00
	2.206706629335591e+00
	-2.253441868325752e+00
	-2.791011789815970e+00
	-2.782229346897939e+00
	-2.793293370664409e+00
	-2.207253107582490e+00
	-2.736321180498387e+00
	1.624982593360580e+00
	2.202370151143521e+00
	2.202370051120337e+00
	2.202369884415030e+00
	-2.793293119330621e+00
	-2.793293370663306e+00
	1.621369994080581e+00
	1.619343536462634e+00
	1.619343536492531e+00
	6.284175276975524e-01
	-8.069777730161262e-01
	-5.440146512701790e-05
	-1.613955563728483e+00
	1.679201606561079e+00
	-9.327878261153751e-01
	-5.293304019275529e-01
	-2.572906496848918e+00
	-1.058229786238166e+00
	-1.619446407308130e+00
	-2.793288946371508e+00
	-2.793293370649832e+00
	-2.793293370650048e+00
	-2.207272886010112e+00
	-2.736522501099402e+00
	1.622148649356019e+00
	-1.324093780577348e+00
	-1.652759017346662e+00
	-2.198213072294056e+00
	-2.202944014279498e+00
	-2.788481140713107e+00
	-1.613955533951319e+00
	-1.617990512436682e+00
	-2.793216134903576e+00
	-1.324000114095521e+00
	1.622238730823430e+00
	-1.058219132833074e+00
	1.679211880076645e+00
	-1.619435485346983e+00
	-2.572906496845532e+00
	-1.324093780576330e+00
	2.206706628223700e+00
	-1.619446407307700e+00
	-2.198308087775226e+00
	-2.198215186431471e+00
	-1.324114410259799e+00
	-1.058240962290106e+00
	-2.207369648431247e+00
	-2.572906496846581e+00
	-1.619446407307702e+00
	2.206706629252019e+00
	1.679190340232868e+00
	1.679201606554991e+00
	-2.793293370659411e+00
	2.202371202360866e+00
	1.625063638918423e+00
	-2.501271186347440e-01
	1.678839666176539e+00
	-2.787053935674058e+00
	-1.721088453449918e+00
	2.202370151140720e+00
	2.206626622219361e+00
	-2.787053935673820e+00
	2.202369884407814e+00
	2.202369884407816e+00
	2.202370151141319e+00
	-2.501490293945559e-01
	-2.207349942405639e+00
	-1.721110428662568e+00
	-2.787053935686896e+00
	2.206693573251778e+00
	1.678829244382027e+00
	1.678817816035937e+00
	-4.282763001665087e-04
	-2.961162225119174e-09
6		3.200000000000000e-03
	-1.613955563755515e+00
	1.678829244348150e+00
	8.087604830996540e-01
	2.788352151240286e-01
	-9.318172565310033e-01
	-1.721099540032786e+00
	-2.501378119978763e-01
	-2.787053935714638e+00
	2.206706629296817e+00
	-2.253441868369261e+00
	-2.791011789854770e+00
	-2.782229346938127e+00
	-2.793293370703183e+00
	-2.207253107621202e+00
	-2.736321180537112e+00
	1.624982593321796e+00
	2.202370151104077e+00
	2.202370051075907e+00
	2.202369884362289e+00
	-2.793293119369422e+00
	-2.793293370702081e+00
	1.621369994041767e+00
	1.619343536423868e+00
	1.619343536453765e+00
	1.141220813577855e+00
	-8.069777730328885e-01
	-5.464793266788913e-05
	-1.613955563761862e+00
	1.679201606632739e+00
	-9.327878995422599e-01
	-5.293306481983662e-01
	-2.572906895847391e+00
	-1.058230032477366e+00
	-1.619446407484312e+00
	-2.793288946481353e+00
	-2.793293370688608e+00
	-2.793293370688823e+00
	-2.207272886049051e+00
	-2.736522501195767e+00
	1.622148649317183e+00
	-1.324093780610961e+00
	-1.652759017380440e+00
	-2.198213072328090e+00
	-2.202944014334090e+00
	-2.788481140754314e+00
	-1.613955533984697e+00
	-1.617990512470147e+00
	-2.793216134942348e+00
	-1.324000114129134e+00
	1.622238730784594e+00
	-1.058219379072285e+00
	1.679211880148261e+00
	-1.619435485523213e+00
	-2.572906895844005e+00
	-1.324093780609944e+00
	2.206706628184927e+00
	-1.619446407483881e+00
	-2.198308087809213e+00
	-2.198215186465553e+00
	-1.324114410293413e+00
	-1.058241208529294e+00
	-2.207369648470186e+00
	-2.572906895845055e+00
	-1.619446407483883e+00
	2.206706629213246e+00
	1.679190340304577e+00
	1.679201606626651e+00
	-2.793293370698185e+00
	2.202371202321423e+00
	1.625063638879639e+00
	-2.501271186506823e-01
	1.678839666137688e+00
	-2.787053935712099e+00
	-1.721088453494538e+00
	2.202370151101276e+00
	2.206626622180589e+00
	-2.787053935711860e+00
	2.202369884355073e+00
	2.202369884355075e+00
	2.202370151101874e+00
	-2.501490294104942e-01
	-2.207349942444351e+00
	-1.721110428707186e+00
	-2.787053935724937e+00
	2.206693573213006e+00
	1.678829244343176e+00
	1.678817815997086e+00
	-4.282763001056445e-04
	-2.166873098359260e-09
7		6.400000000000000e-03
	-1.613955563759244e+00
	1.678829244327540e+00
	8.087604830895712e-01
	2.788352151144299e-01
	-9.318172565367107e-01
	-1.721099540052883e+00
	-2.501378120069828e-01
	-2.787053935733619e+00
	2.206706629276269e+00
	-2.253441868389233e+00
	-2.791011789874804e+00
	-2.782229346958503e+00
	-2.793293370723731e+00
	-2.207253107641769e+00
	-2.736321180557672e+00
	1.624982593301201e+00
	2.202370151083529e+00
	2.202370051060758e+00
	2.202369884356141e+00
	-2.793293119390007e+00
	-2.793293370722628e+00
	1.621369994021547e+00
	1.619343536403674e+00
	1.619343536433571e+00
	1.481236469179601e+00
	-8.069777730350034e-01
	-5.546515731739758e-05
	-1.613955563765591e+00
	1.679201606982622e+00
	-9.327882169319295e-01
	-5.293314647727739e-01
	-2.572907300445382e+00
	-1.058230848949105e+00
	-1.619446407965270e+00
	-2.793288946549601e+00
	-2.793293370709154e+00
	-2.793293370709370e+00
	-2.207272886069904e+00
	-2.736522501407137e+00
	1.622148649296675e+00
	-1.324093780614381e+00
	-1.652759017384005e+00
	-2.198213072331879e+00
	-2.202944014406994e+00
	-2.788481140782914e+00
	-1.613955533988426e+00
	-1.617990512473884e+00
	-2.793216134962896e+00
	-1.324000114132553e+00
	1.622238730764086e+00
	-1.058220195544062e+00
	1.679211880497998e+00
	-1.619435486004334e+00
	-2.572907300441996e+00
	-1.324093780613363e+00
	2.206706628164378e+00
	-1.619446407964839e+00
